Frequency [Hz], |S02| [-], |S12| [-], |S22| [-], |S32| [-], Arg(S02) [-], Arg(S12) [-], Arg(S22) [-], Arg(S32) [-], Delay 2>0 [s], Delay 2>1 [s], Delay 2>2 [s], Delay 2>3 [s], |Z2| [Ohm] , Arg(Z2) [-]
2.000000e+08, 3.984847e-02, 1.364062e-03, 3.548072e-03, 7.856283e-01, 1.505223e+00, 1.358115e+00, -5.619147e-01, -3.321688e-01, 2.720349e-10, 3.080706e-10, -4.339501e-09, 2.524436e-10, 5.030115e+01, -3.780908e-03
2.038000e+08, 4.056431e-02, 1.372587e-03, 3.582349e-03, 7.857954e-01, 1.498728e+00, 1.350759e+00, -4.583043e-01, -3.381962e-01, 2.688010e-10, 2.982261e-10, -4.094582e-09, 2.529504e-10, 5.032230e+01, -3.169893e-03
2.076000e+08, 4.127331e-02, 1.379813e-03, 3.659119e-03, 7.859630e-01, 1.492310e+00, 1.343639e+00, -3.605417e-01, -3.442357e-01, 2.655990e-10, 2.865525e-10, -3.776070e-09, 2.534397e-10, 5.034356e+01, -2.581765e-03
2.114000e+08, 4.197548e-02, 1.385640e-03, 3.773032e-03, 7.861312e-01, 1.485969e+00, 1.336797e+00, -2.703839e-01, -3.502868e-01, 2.624359e-10, 2.723565e-10, -3.418875e-09, 2.539127e-10, 5.036492e+01, -2.015590e-03
2.152000e+08, 4.267082e-02, 1.389955e-03, 3.918401e-03, 7.862996e-01, 1.479703e+00, 1.330294e+00, -1.887544e-01, -3.563493e-01, 2.593179e-10, 2.546620e-10, -3.052768e-09, 2.543702e-10, 5.038637e+01, -1.470485e-03
2.190000e+08, 4.335936e-02, 1.392634e-03, 4.089711e-03, 7.864684e-01, 1.473511e+00, 1.324214e+00, -1.158662e-01, -3.624226e-01, 2.562502e-10, 2.320825e-10, -2.699092e-09, 2.548130e-10, 5.040789e+01, -9.456151e-04
2.228000e+08, 4.404110e-02, 1.393542e-03, 4.281934e-03, 7.866371e-01, 1.467393e+00, 1.318673e+00, -5.142241e-02, -3.685066e-01, 2.532375e-10, 2.026506e-10, -2.370780e-09, 2.552418e-10, 5.042946e+01, -4.401888e-04
2.266000e+08, 4.471609e-02, 1.392544e-03, 4.490698e-03, 7.868059e-01, 1.461347e+00, 1.313834e+00, 5.182580e-03, -3.746008e-01, 2.502835e-10, 1.636235e-10, -2.074070e-09, 2.556574e-10, 5.045109e+01, 4.654753e-05
2.304000e+08, 4.538435e-02, 1.389522e-03, 4.712307e-03, 7.869745e-01, 1.455371e+00, 1.309928e+00, 5.470330e-02, -3.807049e-01, 2.473915e-10, 1.113681e-10, -1.810622e-09, 2.560602e-10, 5.047275e+01, 5.153118e-04
2.342000e+08, 4.604591e-02, 1.384416e-03, 4.943710e-03, 7.871428e-01, 1.449464e+00, 1.307269e+00, 9.793390e-02, -3.868186e-01, 2.445641e-10, 4.165220e-11, -1.579330e-09, 2.564508e-10, 5.049443e+01, 9.667898e-04
2.380000e+08, 4.670082e-02, 1.377298e-03, 5.182417e-03, 7.873107e-01, 1.443625e+00, 1.306274e+00, 1.356421e-01, -3.929416e-01, 2.418035e-10, -4.895377e-11, -1.377643e-09, 2.568298e-10, 5.051613e+01, 1.401638e-03
2.418000e+08, 4.734912e-02, 1.368485e-03, 5.426415e-03, 7.874782e-01, 1.437852e+00, 1.307443e+00, 1.685349e-01, -3.990737e-01, 2.391112e-10, -1.597766e-10, -1.202409e-09, 2.571975e-10, 5.053783e+01, 1.820485e-03
2.456000e+08, 4.799084e-02, 1.358658e-03, 5.674084e-03, 7.876450e-01, 1.432143e+00, 1.311258e+00, 1.972437e-01, -4.052146e-01, 2.364886e-10, -2.818894e-10, -1.050383e-09, 2.575545e-10, 5.055952e+01, 2.223937e-03
2.494000e+08, 4.862604e-02, 1.348857e-03, 5.924124e-03, 7.878110e-01, 1.426496e+00, 1.317988e+00, 2.223228e-01, -4.113640e-01, 2.339365e-10, -3.982770e-10, -9.184888e-10, 2.579010e-10, 5.058119e+01, 2.612575e-03
2.532000e+08, 4.925476e-02, 1.340235e-03, 6.175495e-03, 7.879763e-01, 1.420911e+00, 1.327497e+00, 2.442527e-01, -4.175217e-01, 2.314555e-10, -4.923094e-10, -8.039454e-10, 2.582374e-10, 5.060283e+01, 2.986961e-03
2.570000e+08, 4.987704e-02, 1.333657e-03, 6.427363e-03, 7.881406e-01, 1.415384e+00, 1.339252e+00, 2.634478e-01, -4.236874e-01, 2.290458e-10, -5.571669e-10, -7.043075e-10, 2.585641e-10, 5.062443e+01, 3.347637e-03
2.608000e+08, 5.049294e-02, 1.329479e-03, 6.679059e-03, 7.883039e-01, 1.409916e+00, 1.352555e+00, 2.802639e-01, -4.298609e-01, 2.267074e-10, -5.962358e-10, -6.174602e-10, 2.588814e-10, 5.064599e+01, 3.695127e-03
2.646000e+08, 5.110250e-02, 1.327636e-03, 6.930049e-03, 7.884661e-01, 1.404503e+00, 1.366791e+00, 2.950065e-01, -4.360419e-01, 2.244400e-10, 2.481414e-08, -5.415933e-10, 2.591894e-10, 5.066749e+01, 4.029940e-03
2.684000e+08, 5.170577e-02, 1.332615e-03, 7.179906e-03, 7.886271e-01, 1.399144e+00, 7.743258e-01, 3.079376e-01, -4.422304e-01, 2.222431e-10, 8.451705e-10, -4.751665e-10, 2.594886e-10, 5.068893e+01, 4.352569e-03
2.722000e+08, 5.230280e-02, 1.374429e-03, 7.428291e-03, 7.887868e-01, 1.393838e+00, 7.541464e-01, 3.192827e-01, -4.484260e-01, 2.201162e-10, 8.289780e-10, -4.168728e-10, 2.597790e-10, 5.071029e+01, 4.663491e-03
2.760000e+08, 5.289364e-02, 1.415677e-03, 7.674933e-03, 7.889451e-01, 1.388582e+00, 7.343536e-01, 3.292360e-01, -4.546285e-01, 2.180584e-10, 8.095919e-10, -3.656049e-10, 2.600609e-10, 5.073158e+01, 4.963173e-03
2.798000e+08, 5.347834e-02, 1.456558e-03, 7.919619e-03, 7.891019e-01, 1.383376e+00, 7.150237e-01, 3.379653e-01, -4.608377e-01, 2.160688e-10, 7.888805e-10, -3.204236e-10, 2.603345e-10, 5.075278e+01, 5.252068e-03
2.836000e+08, 5.405694e-02, 1.497251e-03, 8.162183e-03, 7.892572e-01, 1.378217e+00, 6.961883e-01, 3.456157e-01, -4.670535e-01, 2.141464e-10, 7.678919e-10, -2.805319e-10, 2.606001e-10, 5.077389e+01, 5.530617e-03
2.874000e+08, 5.462948e-02, 1.537910e-03, 8.402498e-03, 7.894108e-01, 1.373104e+00, 6.778541e-01, 3.523137e-01, -4.732756e-01, 2.122900e-10, 7.471865e-10, -2.452517e-10, 2.608577e-10, 5.079490e+01, 5.799250e-03
2.912000e+08, 5.519603e-02, 1.578671e-03, 8.640466e-03, 7.895628e-01, 1.368035e+00, 6.600141e-01, 3.581694e-01, -4.795039e-01, 2.104985e-10, 7.270401e-10, -2.140049e-10, 2.611076e-10, 5.081581e+01, 6.058389e-03
2.950000e+08, 5.575661e-02, 1.619653e-03, 8.876019e-03, 7.897129e-01, 1.363009e+00, 6.426553e-01, 3.632790e-01, -4.857381e-01, 2.087705e-10, 7.075644e-10, -1.862972e-10, 2.613498e-10, 5.083661e+01, 6.308442e-03
2.988000e+08, 5.631129e-02, 1.660965e-03, 9.109106e-03, 7.898612e-01, 1.358025e+00, 6.257614e-01, 3.677270e-01, -4.919781e-01, 2.071048e-10, 6.887768e-10, -1.617045e-10, 2.615847e-10, 5.085729e+01, 6.549813e-03
3.026000e+08, 5.686010e-02, 1.702708e-03, 9.339698e-03, 7.900076e-01, 1.353080e+00, 6.093161e-01, 3.715879e-01, -4.982237e-01, 2.054999e-10, 6.706404e-10, -1.398622e-10, 2.618122e-10, 5.087786e+01, 6.782891e-03
3.064000e+08, 5.740308e-02, 1.744978e-03, 9.567781e-03, 7.901521e-01, 1.348173e+00, 5.933038e-01, 3.749273e-01, -5.044748e-01, 2.039545e-10, 6.530874e-10, -1.204554e-10, 2.620325e-10, 5.089830e+01, 7.008062e-03
3.102000e+08, 5.794028e-02, 1.787865e-03, 9.793351e-03, 7.902945e-01, 1.343304e+00, 5.777106e-01, 3.778033e-01, -5.107311e-01, 2.024671e-10, 6.360322e-10, -1.032117e-10, 2.622457e-10, 5.091862e+01, 7.225701e-03
3.140000e+08, 5.847173e-02, 1.831463e-03, 1.001642e-02, 7.904348e-01, 1.338470e+00, 5.625246e-01, 3.802676e-01, -5.169925e-01, 2.010362e-10, 6.193783e-10, -8.789424e-11, 2.624521e-10, 5.093881e+01, 7.436176e-03
3.178000e+08, 5.899749e-02, 1.875861e-03, 1.023700e-02, 7.905729e-01, 1.333670e+00, 5.477363e-01, 3.823662e-01, -5.232588e-01, 1.996606e-10, 6.030222e-10, -7.429672e-11, 2.626516e-10, 5.095887e+01, 7.639845e-03
3.216000e+08, 5.951759e-02, 1.921155e-03, 1.045512e-02, 7.907089e-01, 1.328903e+00, 5.333385e-01, 3.841401e-01, -5.295299e-01, 1.983385e-10, 5.868550e-10, -6.223875e-11, 2.628444e-10, 5.097879e+01, 7.837062e-03
3.254000e+08, 6.003207e-02, 1.967441e-03, 1.067082e-02, 7.908426e-01, 1.324167e+00, 5.193267e-01, 3.856261e-01, -5.358056e-01, 1.970688e-10, 5.707621e-10, -5.156210e-11, 2.630306e-10, 5.099858e+01, 8.028173e-03
3.292000e+08, 6.054096e-02, 2.014821e-03, 1.088413e-02, 7.909740e-01, 1.319462e+00, 5.056991e-01, 3.868572e-01, -5.420858e-01, 1.958498e-10, 5.546226e-10, -4.212754e-11, 2.632104e-10, 5.101823e+01, 8.213515e-03
3.330000e+08, 6.104431e-02, 2.063402e-03, 1.109511e-02, 7.911030e-01, 1.314786e+00, 4.924569e-01, 3.878630e-01, -5.483702e-01, 1.946801e-10, 5.383081e-10, -3.381218e-11, 2.633837e-10, 5.103774e+01, 8.393420e-03
3.368000e+08, 6.154214e-02, 2.113298e-03, 1.130379e-02, 7.912297e-01, 1.310137e+00, 4.796042e-01, 3.886703e-01, -5.546588e-01, 1.935584e-10, 5.216805e-10, -2.650720e-11, 2.635508e-10, 5.105711e+01, 8.568212e-03
3.406000e+08, 6.203450e-02, 2.164631e-03, 1.151023e-02, 7.913540e-01, 1.305516e+00, 4.671485e-01, 3.893032e-01, -5.609514e-01, 1.924832e-10, 5.045894e-10, -2.011597e-11, 2.637117e-10, 5.107634e+01, 8.738209e-03
3.444000e+08, 6.252142e-02, 2.217531e-03, 1.171449e-02, 7.914757e-01, 1.300920e+00, 4.551008e-01, 3.897835e-01, -5.672478e-01, 1.914532e-10, 4.868696e-10, -1.455238e-11, 2.638664e-10, 5.109543e+01, 8.903723e-03
3.482000e+08, 6.300294e-02, 2.272141e-03, 1.191663e-02, 7.915950e-01, 1.296349e+00, 4.434763e-01, 3.901310e-01, -5.735479e-01, 1.904670e-10, 4.683378e-10, -9.739513e-12, 2.640152e-10, 5.111438e+01, 9.065058e-03
3.520000e+08, 6.347907e-02, 2.328611e-03, 1.211672e-02, 7.917118e-01, 1.291801e+00, 4.322942e-01, 3.903635e-01, -5.798515e-01, 1.895233e-10, 4.487881e-10, -5.608408e-12, 2.641581e-10, 5.113319e+01, 9.222513e-03
3.558000e+08, 6.394987e-02, 2.387107e-03, 1.231482e-02, 7.918260e-01, 1.287276e+00, 4.215789e-01, 3.904974e-01, -5.861586e-01, 1.886207e-10, 4.279886e-10, -2.097085e-12, 2.642952e-10, 5.115187e+01, 9.376379e-03
3.596000e+08, 6.441535e-02, 2.447805e-03, 1.251099e-02, 7.919377e-01, 1.282773e+00, 4.113602e-01, 3.905475e-01, -5.924689e-01, 1.877580e-10, 4.056753e-10, 8.503346e-13, 2.644266e-10, 5.117041e+01, 9.526942e-03
3.634000e+08, 6.487555e-02, 2.510897e-03, 1.270532e-02, 7.920467e-01, 1.278290e+00, 4.016743e-01, 3.905272e-01, -5.987824e-01, 1.869339e-10, 3.815472e-10, 3.284389e-12, 2.645523e-10, 5.118881e+01, 9.674482e-03
3.672000e+08, 6.533050e-02, 2.576589e-03, 1.289788e-02, 7.921532e-01, 1.273827e+00, 3.925644e-01, 3.904488e-01, -6.050989e-01, 1.861473e-10, 3.552601e-10, 5.250896e-12, 2.646725e-10, 5.120708e+01, 9.819270e-03
3.710000e+08, 6.578022e-02, 2.645102e-03, 1.308873e-02, 7.922569e-01, 1.269382e+00, 3.840822e-01, 3.903234e-01, -6.114182e-01, 1.853969e-10, 3.264194e-10, 6.791553e-12, 2.647873e-10, 5.122523e+01, 9.961573e-03
3.748000e+08, 6.622475e-02, 2.716669e-03, 1.327796e-02, 7.923581e-01, 1.264956e+00, 3.762885e-01, 3.901612e-01, -6.177403e-01, 1.846815e-10, 2.945739e-10, 7.944379e-12, 2.648967e-10, 5.124324e+01, 1.010165e-02
3.786000e+08, 6.666410e-02, 2.791538e-03, 1.346565e-02, 7.924565e-01, 1.260546e+00, 3.692553e-01, 3.899716e-01, -6.240650e-01, 1.840000e-10, 2.592092e-10, 8.744164e-12, 2.650008e-10, 5.126114e+01, 1.023976e-02
3.824000e+08, 6.709832e-02, 2.869964e-03, 1.365188e-02, 7.925523e-01, 1.256153e+00, 3.630664e-01, 3.897628e-01, -6.303922e-01, 1.833514e-10, 2.197428e-10, 9.222834e-12, 2.650997e-10, 5.127891e+01, 1.037615e-02
3.862000e+08, 6.752741e-02, 2.952207e-03, 1.383673e-02, 7.926454e-01, 1.251775e+00, 3.578198e-01, 3.895426e-01, -6.367218e-01, 1.827344e-10, 1.755223e-10, 9.409752e-12, 2.651936e-10, 5.129657e+01, 1.051105e-02
3.900000e+08, 6.795141e-02, 3.038521e-03, 1.402029e-02, 7.927357e-01, 1.247412e+00, 3.536290e-01, 3.893179e-01, -6.430536e-01, 1.821482e-10, 1.258294e-10, 9.332029e-12, 2.652824e-10, 5.131412e+01, 1.064470e-02
3.938000e+08, 6.837034e-02, 3.129141e-03, 1.420264e-02, 7.928234e-01, 1.243063e+00, 3.506246e-01, 3.890951e-01, -6.493875e-01, 1.815916e-10, 6.989315e-11, 9.014739e-12, 2.653664e-10, 5.133156e+01, 1.077734e-02
3.976000e+08, 6.878422e-02, 3.224269e-03, 1.438387e-02, 7.929084e-01, 1.238728e+00, 3.489559e-01, 3.888799e-01, -6.557234e-01, 1.810636e-10, 6.919644e-12, 8.481151e-12, 2.654455e-10, 5.134890e+01, 1.090918e-02
4.014000e+08, 6.919308e-02, 3.324037e-03, 1.456407e-02, 7.929906e-01, 1.234404e+00, 3.487907e-01, 3.886774e-01, -6.620612e-01, 1.805634e-10, -6.385573e-11, 7.752914e-12, 2.655199e-10, 5.136615e+01, 1.104043e-02
4.052000e+08, 6.959694e-02, 3.428479e-03, 1.474332e-02, 7.930702e-01, 1.230093e+00, 3.503153e-01, 3.884923e-01, -6.684008e-01, 1.800899e-10, -1.430813e-10, 6.850221e-12, 2.655896e-10, 5.138330e+01, 1.117131e-02
4.090000e+08, 6.999582e-02, 3.537477e-03, 1.492173e-02, 7.931470e-01, 1.225794e+00, 3.537315e-01, 3.883287e-01, -6.747420e-01, 1.796422e-10, -2.311570e-10, 5.791952e-12, 2.656548e-10, 5.140037e+01, 1.130202e-02
4.128000e+08, 7.038974e-02, 3.650699e-03, 1.509937e-02, 7.932211e-01, 1.221504e+00, 3.592506e-01, 3.881904e-01, -6.810848e-01, 1.792195e-10, -3.280459e-10, 4.595807e-12, 2.657155e-10, 5.141735e+01, 1.143276e-02
4.166000e+08, 7.077873e-02, 3.767524e-03, 1.527636e-02, 7.932926e-01, 1.217225e+00, 3.670831e-01, 3.880807e-01, -6.874291e-01, 1.788209e-10, -4.330299e-10, 3.278413e-12, 2.657718e-10, 5.143427e+01, 1.156371e-02
4.204000e+08, 7.116279e-02, 3.886961e-03, 1.545276e-02, 7.933613e-01, 1.212956e+00, 3.774222e-01, 3.880024e-01, -6.937747e-01, 1.784456e-10, -5.444237e-10, 1.855431e-12, 2.658238e-10, 5.145112e+01, 1.169506e-02
4.242000e+08, 7.154195e-02, 4.007572e-03, 1.562870e-02, 7.934274e-01, 1.208695e+00, 3.904209e-01, 3.879581e-01, -7.001215e-01, 1.780927e-10, -6.593022e-10, 3.416249e-13, 2.658716e-10, 5.146791e+01, 1.182698e-02
4.280000e+08, 7.191623e-02, 4.127431e-03, 1.580425e-02, 7.934909e-01, 1.204443e+00, 4.061624e-01, 3.879499e-01, -7.064695e-01, 1.777615e-10, -7.733355e-10, -1.249037e-12, 2.659154e-10, 5.148465e+01, 1.195965e-02
4.318000e+08, 7.228565e-02, 4.244132e-03, 1.597952e-02, 7.935516e-01, 1.200199e+00, 4.246267e-01, 3.879798e-01, -7.128185e-01, 1.774512e-10, -8.808689e-10, -2.903340e-12, 2.659551e-10, 5.150134e+01, 1.209322e-02
4.356000e+08, 7.265022e-02, 4.354901e-03, 1.615461e-02, 7.936098e-01, 1.195962e+00, 4.456584e-01, 3.880491e-01, -7.191685e-01, 1.771611e-10, -9.753817e-10, -4.608748e-12, 2.659908e-10, 5.151799e+01, 1.222785e-02
4.394000e+08, 7.300996e-02, 4.456814e-03, 1.632961e-02, 7.936653e-01, 1.191732e+00, 4.689467e-01, 3.881591e-01, -7.255193e-01, 1.768904e-10, -1.050368e-09, -6.353360e-12, 2.660227e-10, 5.153462e+01, 1.236370e-02
4.432000e+08, 7.336489e-02, 4.547120e-03, 1.650462e-02, 7.937182e-01, 1.187509e+00, 4.940254e-01, 3.883108e-01, -7.318709e-01, 1.766385e-10, -1.100500e-09, -8.125864e-12, 2.660509e-10, 5.155122e+01, 1.250090e-02
4.470000e+08, 7.371502e-02, 4.623608e-03, 1.667975e-02, 7.937686e-01, 1.183291e+00, 5.203011e-01, 3.885048e-01, -7.382231e-01, 1.764046e-10, -1.122741e-09, -9.915499e-12, 2.660754e-10, 5.156781e+01, 1.263959e-02
4.508000e+08, 7.406037e-02, 4.684921e-03, 1.685509e-02, 7.938164e-01, 1.179079e+00, 5.471077e-01, 3.887416e-01, -7.445760e-01, 1.761881e-10, -1.116991e-09, -1.171202e-11, 2.660963e-10, 5.158440e+01, 1.277991e-02
4.546000e+08, 7.440095e-02, 4.730721e-03, 1.703074e-02, 7.938617e-01, 1.174873e+00, 5.737771e-01, 3.890212e-01, -7.509293e-01, 1.759884e-10, -1.086017e-09, -1.350568e-11, 2.661138e-10, 5.160098e+01, 1.292197e-02
4.584000e+08, 7.473678e-02, 4.761670e-03, 1.720680e-02, 7.939044e-01, 1.170671e+00, 5.997070e-01, 3.893437e-01, -7.572831e-01, 1.758048e-10, -1.034694e-09, -1.528717e-11, 2.661278e-10, 5.161758e+01, 1.306588e-02
4.622000e+08, 7.506787e-02, 4.779228e-03, 1.738338e-02, 7.939447e-01, 1.166473e+00, 6.244114e-01, 3.897087e-01, -7.636372e-01, 1.756368e-10, -9.689186e-10, -1.704766e-11, 2.661385e-10, 5.163420e+01, 1.321177e-02
4.660000e+08, 7.539423e-02, 4.785360e-03, 1.756057e-02, 7.939825e-01, 1.162280e+00, 6.475454e-01, 3.901157e-01, -7.699915e-01, 1.754838e-10, -8.945429e-10, -1.877872e-11, 2.661461e-10, 5.165085e+01, 1.335974e-02
4.698000e+08, 7.571588e-02, 4.782238e-03, 1.773848e-02, 7.940179e-01, 1.158090e+00, 6.689036e-01, 3.905641e-01, -7.763461e-01, 1.753451e-10, -8.166366e-10, -2.047234e-11, 2.661505e-10, 5.166754e+01, 1.350987e-02
4.736000e+08, 7.603283e-02, 4.771995e-03, 1.791721e-02, 7.940509e-01, 1.153903e+00, 6.884017e-01, 3.910529e-01, -7.827007e-01, 1.752203e-10, -7.391257e-10, -2.212091e-11, 2.661518e-10, 5.168428e+01, 1.366226e-02
4.774000e+08, 7.634509e-02, 4.756563e-03, 1.809686e-02, 7.940816e-01, 1.149720e+00, 7.060492e-01, 3.915810e-01, -7.890554e-01, 1.751088e-10, -6.647504e-10, -2.371720e-11, 2.661503e-10, 5.170108e+01, 1.381699e-02
4.812000e+08, 7.665268e-02, 4.737592e-03, 1.827753e-02, 7.941098e-01, 1.145539e+00, 7.219208e-01, 3.921473e-01, -7.954100e-01, 1.750101e-10, -5.952136e-10, -2.525437e-11, 2.661458e-10, 5.171794e+01, 1.397414e-02
4.850000e+08, 7.695560e-02, 4.716428e-03, 1.845932e-02, 7.941358e-01, 1.141360e+00, 7.361322e-01, 3.927503e-01, -8.017645e-01, 1.749236e-10, -5.314067e-10, -2.672594e-11, 2.661386e-10, 5.173488e+01, 1.413377e-02
4.888000e+08, 7.725386e-02, 4.694132e-03, 1.864232e-02, 7.941595e-01, 1.137184e+00, 7.488201e-01, 3.933884e-01, -8.081189e-01, 1.748490e-10, -4.736405e-10, -2.812581e-11, 2.661287e-10, 5.175191e+01, 1.429595e-02
4.926000e+08, 7.754748e-02, 4.671513e-03, 1.882665e-02, 7.941810e-01, 1.133009e+00, 7.601288e-01, 3.940599e-01, -8.144730e-01, 1.747856e-10, -4.218412e-10, -2.944823e-11, 2.661162e-10, 5.176903e+01, 1.446074e-02
4.964000e+08, 7.783647e-02, 4.649175e-03, 1.901240e-02, 7.942003e-01, 1.128836e+00, 7.702008e-01, 3.947630e-01, -8.208268e-01, 1.747332e-10, -3.757012e-10, -3.068782e-11, 2.661012e-10, 5.178626e+01, 1.462818e-02
5.002000e+08, 7.812083e-02, 4.627553e-03, 1.919966e-02, 7.942174e-01, 1.124664e+00, 7.791710e-01, 3.954957e-01, -8.271803e-01, 1.746911e-10, -3.347866e-10, -3.183956e-11, 2.660838e-10, 5.180361e+01, 1.479832e-02
5.040000e+08, 7.840057e-02, 4.606954e-03, 1.938854e-02, 7.942323e-01, 1.120493e+00, 7.871644e-01, 3.962559e-01, -8.335333e-01, 1.746589e-10, -2.986099e-10, -3.289877e-11, 2.660641e-10, 5.182109e+01, 1.497119e-02
5.078000e+08, 7.867571e-02, 4.587586e-03, 1.957913e-02, 7.942452e-01, 1.116323e+00, 7.942941e-01, 3.970414e-01, -8.398859e-01, 1.746363e-10, -2.666750e-10, -3.386112e-11, 2.660421e-10, 5.183870e+01, 1.514682e-02
5.116000e+08, 7.894624e-02, 4.569583e-03, 1.977153e-02, 7.942560e-01, 1.112153e+00, 8.006612e-01, 3.978499e-01, -8.462379e-01, 1.746228e-10, -2.385054e-10, -3.472266e-11, 2.660179e-10, 5.185646e+01, 1.532524e-02
5.154000e+08, 7.921219e-02, 4.553025e-03, 1.996583e-02, 7.942648e-01, 1.107984e+00, 8.063558e-01, 3.986790e-01, -8.525894e-01, 1.746180e-10, -2.136581e-10, -3.547975e-11, 2.659917e-10, 5.187438e+01, 1.550646e-02
5.192000e+08, 7.947355e-02, 4.537952e-03, 2.016212e-02, 7.942716e-01, 1.103814e+00, 8.114571e-01, 3.995261e-01, -8.589403e-01, 1.746215e-10, -1.917306e-10, -3.612912e-11, 2.659635e-10, 5.189246e+01, 1.569049e-02
5.230000e+08, 7.973033e-02, 4.524375e-03, 2.036051e-02, 7.942765e-01, 1.099645e+00, 8.160349e-01, 4.003887e-01, -8.652904e-01, 1.746329e-10, -1.723626e-10, -3.666784e-11, 2.659333e-10, 5.191072e+01, 1.587734e-02
5.268000e+08, 7.998254e-02, 4.512286e-03, 2.056107e-02, 7.942795e-01, 1.095476e+00, 8.201503e-01, 4.012642e-01, -8.716399e-01, 1.746518e-10, -1.552347e-10, -3.709332e-11, 2.659014e-10, 5.192918e+01, 1.606700e-02
5.306000e+08, 8.023019e-02, 4.501663e-03, 2.076390e-02, 7.942806e-01, 1.091306e+00, 8.238567e-01, 4.021498e-01, -8.779886e-01, 1.746780e-10, -1.400656e-10, -3.740330e-11, 2.658677e-10, 5.194783e+01, 1.625946e-02
5.344000e+08, 8.047328e-02, 4.492475e-03, 2.096909e-02, 7.942799e-01, 1.087135e+00, 8.272009e-01, 4.030429e-01, -8.843365e-01, 1.747109e-10, -1.266087e-10, -3.759588e-11, 2.658323e-10, 5.196669e+01, 1.645471e-02
5.382000e+08, 8.071182e-02, 4.484687e-03, 2.117672e-02, 7.942774e-01, 1.082964e+00, 8.302238e-01, 4.039405e-01, -8.906835e-01, 1.747504e-10, -1.146484e-10, -3.766946e-11, 2.657953e-10, 5.198577e+01, 1.665273e-02
5.420000e+08, 8.094581e-02, 4.478257e-03, 2.138688e-02, 7.942732e-01, 1.078791e+00, 8.329612e-01, 4.048399e-01, -8.970297e-01, 1.747960e-10, -1.039963e-10, -3.762279e-11, 2.657569e-10, 5.200508e+01, 1.685349e-02
5.458000e+08, 8.117526e-02, 4.473146e-03, 2.159966e-02, 7.942673e-01, 1.074618e+00, 8.354442e-01, 4.057382e-01, -9.033749e-01, 1.748473e-10, -9.448801e-11, -3.745493e-11, 2.657170e-10, 5.202463e+01, 1.705695e-02
5.496000e+08, 8.140017e-02, 4.469314e-03, 2.181513e-02, 7.942597e-01, 1.070443e+00, 8.377002e-01, 4.066325e-01, -9.097192e-01, 1.749042e-10, -8.597991e-11, -3.716527e-11, 2.656758e-10, 5.204444e+01, 1.726308e-02
