Frequency [Hz], |S02| [-], |S12| [-], |S22| [-], |S32| [-], Arg(S02) [-], Arg(S12) [-], Arg(S22) [-], Arg(S32) [-], Delay 2>0 [s], Delay 2>1 [s], Delay 2>2 [s], Delay 2>3 [s], |Z2| [Ohm] , Arg(Z2) [-]
2.000000e+08, 4.483153e-02, 3.672212e-03, 2.068565e-02, 8.058601e-01, 1.423610e+00, 2.823065e-01, -1.523102e+00, -4.202957e-01, 3.863558e-10, 4.177535e-10, 1.961937e-10, 3.242702e-10, 5.009868e+01, -4.131842e-02
2.038000e+08, 4.565962e-02, 3.724081e-03, 2.068944e-02, 8.060965e-01, 1.414385e+00, 2.723322e-01, -1.527786e+00, -4.280380e-01, 3.828193e-10, 4.053864e-10, 2.105795e-10, 3.249590e-10, 5.008900e+01, -4.133477e-02
2.076000e+08, 4.647476e-02, 3.774971e-03, 2.070302e-02, 8.063324e-01, 1.405245e+00, 2.626531e-01, -1.532814e+00, -4.357967e-01, 3.789484e-10, 3.929253e-10, 2.249028e-10, 3.256259e-10, 5.007864e+01, -4.137030e-02
2.114000e+08, 4.727700e-02, 3.825002e-03, 2.072580e-02, 8.065676e-01, 1.396197e+00, 2.532716e-01, -1.538184e+00, -4.435714e-01, 3.748038e-10, 3.805515e-10, 2.391339e-10, 3.262722e-10, 5.006760e+01, -4.142365e-02
2.152000e+08, 4.806646e-02, 3.874293e-03, 2.075722e-02, 8.068019e-01, 1.387248e+00, 2.441855e-01, -1.543893e+00, -4.513615e-01, 3.704416e-10, 3.684206e-10, 2.532454e-10, 3.268984e-10, 5.005584e+01, -4.149348e-02
2.190000e+08, 4.884328e-02, 3.922961e-03, 2.079678e-02, 8.070352e-01, 1.378404e+00, 2.353890e-01, -1.549940e+00, -4.591666e-01, 3.659126e-10, 3.566624e-10, 2.672127e-10, 3.275056e-10, 5.004337e+01, -4.157853e-02
2.228000e+08, 4.960764e-02, 3.971119e-03, 2.084397e-02, 8.072671e-01, 1.369667e+00, 2.268733e-01, -1.556320e+00, -4.669861e-01, 3.612628e-10, 3.453822e-10, 2.810136e-10, 3.280943e-10, 5.003017e+01, -4.167755e-02
2.266000e+08, 5.035975e-02, 4.018872e-03, 2.089835e-02, 8.074976e-01, 1.361042e+00, 2.186270e-01, -1.563029e+00, -4.748198e-01, 3.565333e-10, 3.346627e-10, 2.946283e-10, 3.286653e-10, 5.001623e+01, -4.178935e-02
2.304000e+08, 5.109982e-02, 4.066319e-03, 2.095946e-02, 8.077264e-01, 1.352529e+00, 2.106365e-01, -1.570064e+00, -4.826670e-01, 3.517604e-10, 3.245654e-10, 3.080394e-10, 3.292191e-10, 5.000153e+01, -4.191277e-02
2.342000e+08, 5.182810e-02, 4.113552e-03, 2.102690e-02, 8.079533e-01, 1.344130e+00, 2.028872e-01, -1.577419e+00, -4.905275e-01, 3.469756e-10, 3.151336e-10, 3.212316e-10, 3.297561e-10, 4.998608e+01, -4.204668e-02
2.380000e+08, 5.254481e-02, 4.160654e-03, 2.110027e-02, 8.081782e-01, 1.335846e+00, 1.953630e-01, -1.585088e+00, -4.984008e-01, 3.422065e-10, 3.063942e-10, 3.341919e-10, 3.302769e-10, 4.996987e+01, -4.218997e-02
2.418000e+08, 5.325022e-02, 4.207700e-03, 2.117920e-02, 8.084008e-01, 1.327675e+00, 1.880475e-01, -1.593067e+00, -5.062865e-01, 3.374765e-10, 2.983606e-10, 3.469091e-10, 3.307820e-10, 4.995288e+01, -4.234158e-02
2.456000e+08, 5.394458e-02, 4.254758e-03, 2.126334e-02, 8.086211e-01, 1.319618e+00, 1.809238e-01, -1.601350e+00, -5.141843e-01, 3.328054e-10, 2.910345e-10, 3.593741e-10, 3.312716e-10, 4.993511e+01, -4.250045e-02
2.494000e+08, 5.462811e-02, 4.301885e-03, 2.135235e-02, 8.088388e-01, 1.311672e+00, 1.739750e-01, -1.609931e+00, -5.220938e-01, 3.282098e-10, 2.844080e-10, 3.715793e-10, 3.317461e-10, 4.991657e+01, -4.266555e-02
2.532000e+08, 5.530107e-02, 4.349135e-03, 2.144591e-02, 8.090538e-01, 1.303835e+00, 1.671845e-01, -1.618803e+00, -5.300146e-01, 3.237032e-10, 2.784658e-10, 3.835189e-10, 3.322059e-10, 4.989724e+01, -4.283590e-02
2.570000e+08, 5.596370e-02, 4.396551e-03, 2.154372e-02, 8.092660e-01, 1.296107e+00, 1.605358e-01, -1.627960e+00, -5.379463e-01, 3.192965e-10, 2.731864e-10, 3.951885e-10, 3.326512e-10, 4.987712e+01, -4.301049e-02
2.608000e+08, 5.661622e-02, 4.444172e-03, 2.164549e-02, 8.094751e-01, 1.288483e+00, 1.540132e-01, -1.637395e+00, -5.458888e-01, 3.149981e-10, 2.685440e-10, 4.065851e-10, 3.330824e-10, 4.985622e+01, -4.318838e-02
2.646000e+08, 5.725884e-02, 4.492030e-03, 2.175094e-02, 8.096811e-01, 1.280962e+00, 1.476014e-01, -1.647103e+00, -5.538415e-01, 3.108146e-10, 2.645093e-10, 4.177070e-10, 3.334996e-10, 4.983454e+01, -4.336862e-02
2.684000e+08, 5.789178e-02, 4.540151e-03, 2.185982e-02, 8.098838e-01, 1.273541e+00, 1.412859e-01, -1.657076e+00, -5.618041e-01, 3.067505e-10, 2.610509e-10, 4.285535e-10, 3.339031e-10, 4.981207e+01, -4.355028e-02
2.722000e+08, 5.851524e-02, 4.588555e-03, 2.197187e-02, 8.100830e-01, 1.266217e+00, 1.350531e-01, -1.667308e+00, -5.697764e-01, 3.028089e-10, 2.581360e-10, 4.391251e-10, 3.342931e-10, 4.978882e+01, -4.373246e-02
2.760000e+08, 5.912939e-02, 4.637258e-03, 2.208685e-02, 8.102788e-01, 1.258987e+00, 1.288898e-01, -1.677793e+00, -5.777581e-01, 2.989916e-10, 2.557311e-10, 4.494231e-10, 3.346698e-10, 4.976480e+01, -4.391427e-02
2.798000e+08, 5.973443e-02, 4.686274e-03, 2.220453e-02, 8.104708e-01, 1.251848e+00, 1.227839e-01, -1.688523e+00, -5.857487e-01, 2.952989e-10, 2.538026e-10, 4.594496e-10, 3.350334e-10, 4.974000e+01, -4.409483e-02
2.836000e+08, 6.033051e-02, 4.735609e-03, 2.232470e-02, 8.106591e-01, 1.244798e+00, 1.167241e-01, -1.699493e+00, -5.937480e-01, 2.917307e-10, 2.523173e-10, 4.692075e-10, 3.353841e-10, 4.971444e+01, -4.427328e-02
2.874000e+08, 6.091778e-02, 4.785267e-03, 2.244715e-02, 8.108435e-01, 1.237832e+00, 1.106997e-01, -1.710696e+00, -6.017556e-01, 2.882856e-10, 2.512425e-10, 4.787003e-10, 3.357220e-10, 4.968812e+01, -4.444879e-02
2.912000e+08, 6.149639e-02, 4.835251e-03, 2.257167e-02, 8.110240e-01, 1.230949e+00, 1.047010e-01, -1.722126e+00, -6.097714e-01, 2.849617e-10, 2.505467e-10, 4.879322e-10, 3.360474e-10, 4.966105e+01, -4.462053e-02
2.950000e+08, 6.206648e-02, 4.885558e-03, 2.269807e-02, 8.112003e-01, 1.224145e+00, 9.871897e-02, -1.733775e+00, -6.177949e-01, 2.817565e-10, 2.501995e-10, 4.969077e-10, 3.363603e-10, 4.963324e+01, -4.478769e-02
2.988000e+08, 6.262816e-02, 4.936185e-03, 2.282618e-02, 8.113725e-01, 1.217418e+00, 9.274518e-02, -1.745640e+00, -6.258258e-01, 2.786672e-10, 2.501717e-10, 5.056318e-10, 3.366609e-10, 4.960470e+01, -4.494948e-02
3.026000e+08, 6.318155e-02, 4.987125e-03, 2.295581e-02, 8.115404e-01, 1.210765e+00, 8.677206e-02, -1.757712e+00, -6.338640e-01, 2.756906e-10, 2.504356e-10, 5.141098e-10, 3.369494e-10, 4.957544e+01, -4.510511e-02
3.064000e+08, 6.372675e-02, 5.038369e-03, 2.308680e-02, 8.117040e-01, 1.204182e+00, 8.079263e-02, -1.769987e+00, -6.419090e-01, 2.728231e-10, 2.509648e-10, 5.223474e-10, 3.372259e-10, 4.954548e+01, -4.525383e-02
3.102000e+08, 6.426386e-02, 5.089907e-03, 2.321898e-02, 8.118632e-01, 1.197668e+00, 7.480057e-02, -1.782459e+00, -6.499607e-01, 2.700609e-10, 2.517344e-10, 5.303506e-10, 3.374905e-10, 4.951482e+01, -4.539489e-02
3.140000e+08, 6.479296e-02, 5.141728e-03, 2.335220e-02, 8.120180e-01, 1.191220e+00, 6.879013e-02, -1.795121e+00, -6.580186e-01, 2.674003e-10, 2.527210e-10, 5.381253e-10, 3.377435e-10, 4.948348e+01, -4.552757e-02
3.178000e+08, 6.531413e-02, 5.193819e-03, 2.348631e-02, 8.121682e-01, 1.184836e+00, 6.275614e-02, -1.807970e+00, -6.660826e-01, 2.648373e-10, 2.539026e-10, 5.456779e-10, 3.379848e-10, 4.945149e+01, -4.565114e-02
3.216000e+08, 6.582745e-02, 5.246164e-03, 2.362117e-02, 8.123138e-01, 1.178513e+00, 5.669393e-02, -1.820998e+00, -6.741524e-01, 2.623679e-10, 2.552585e-10, 5.530148e-10, 3.382147e-10, 4.941884e+01, -4.576490e-02
3.254000e+08, 6.633298e-02, 5.298749e-03, 2.375663e-02, 8.124548e-01, 1.172248e+00, 5.059935e-02, -1.834202e+00, -6.822276e-01, 2.599880e-10, 2.567694e-10, 5.601424e-10, 3.384334e-10, 4.938557e+01, -4.586819e-02
3.292000e+08, 6.683077e-02, 5.351557e-03, 2.389257e-02, 8.125911e-01, 1.166041e+00, 4.446870e-02, -1.847576e+00, -6.903081e-01, 2.576937e-10, 2.584172e-10, 5.670673e-10, 3.386408e-10, 4.935169e+01, -4.596032e-02
3.330000e+08, 6.732087e-02, 5.404570e-03, 2.402886e-02, 8.127226e-01, 1.159888e+00, 3.829871e-02, -1.861116e+00, -6.983935e-01, 2.554810e-10, 2.601851e-10, 5.737959e-10, 3.388373e-10, 4.931721e+01, -4.604066e-02
3.368000e+08, 6.780334e-02, 5.457771e-03, 2.416537e-02, 8.128495e-01, 1.153788e+00, 3.208650e-02, -1.874816e+00, -7.064836e-01, 2.533460e-10, 2.620575e-10, 5.803349e-10, 3.390228e-10, 4.928217e+01, -4.610858e-02
3.406000e+08, 6.827820e-02, 5.511140e-03, 2.430198e-02, 8.129715e-01, 1.147739e+00, 2.582959e-02, -1.888672e+00, -7.145782e-01, 2.512849e-10, 2.640197e-10, 5.866908e-10, 3.391977e-10, 4.924657e+01, -4.616345e-02
3.444000e+08, 6.874550e-02, 5.564658e-03, 2.443859e-02, 8.130887e-01, 1.141740e+00, 1.952582e-02, -1.902680e+00, -7.226769e-01, 2.492939e-10, 2.660582e-10, 5.928701e-10, 3.393619e-10, 4.921044e+01, -4.620469e-02
3.482000e+08, 6.920527e-02, 5.618306e-03, 2.457509e-02, 8.132011e-01, 1.135787e+00, 1.317339e-02, -1.916835e+00, -7.307796e-01, 2.473694e-10, 2.681604e-10, 5.988793e-10, 3.395158e-10, 4.917380e+01, -4.623171e-02
3.520000e+08, 6.965753e-02, 5.672063e-03, 2.471136e-02, 8.133087e-01, 1.129881e+00, 6.770766e-03, -1.931134e+00, -7.388859e-01, 2.455078e-10, 2.703146e-10, 6.047247e-10, 3.396593e-10, 4.913669e+01, -4.624395e-02
3.558000e+08, 7.010230e-02, 5.725909e-03, 2.484731e-02, 8.134114e-01, 1.124019e+00, 3.167050e-04, -1.945572e+00, -7.469956e-01, 2.437057e-10, 2.725101e-10, 6.104125e-10, 3.397927e-10, 4.909910e+01, -4.624088e-02
3.596000e+08, 7.053960e-02, 5.779822e-03, 2.498284e-02, 8.135093e-01, 1.118201e+00, -6.189774e-03, -1.960147e+00, -7.551085e-01, 2.419598e-10, 2.747366e-10, 6.159491e-10, 3.399160e-10, 4.906109e+01, -4.622196e-02
3.634000e+08, 7.096944e-02, 5.833782e-03, 2.511786e-02, 8.136023e-01, 1.112424e+00, -1.274941e-02, -1.974853e+00, -7.632244e-01, 2.402668e-10, 2.769851e-10, 6.213406e-10, 3.400296e-10, 4.902266e+01, -4.618670e-02
3.672000e+08, 7.139184e-02, 5.887767e-03, 2.525227e-02, 8.136905e-01, 1.106687e+00, -1.936274e-02, -1.989688e+00, -7.713430e-01, 2.386236e-10, 2.792467e-10, 6.265928e-10, 3.401335e-10, 4.898385e+01, -4.613460e-02
3.710000e+08, 7.180680e-02, 5.941756e-03, 2.538599e-02, 8.137739e-01, 1.100990e+00, -2.603006e-02, -2.004649e+00, -7.794640e-01, 2.370272e-10, 2.815136e-10, 6.317118e-10, 3.402278e-10, 4.894467e+01, -4.606520e-02
3.748000e+08, 7.221433e-02, 5.995727e-03, 2.551894e-02, 8.138525e-01, 1.095330e+00, -3.275151e-02, -2.019732e+00, -7.875874e-01, 2.354747e-10, 2.837784e-10, 6.367033e-10, 3.403129e-10, 4.890517e+01, -4.597805e-02
3.786000e+08, 7.261442e-02, 6.049659e-03, 2.565104e-02, 8.139262e-01, 1.089708e+00, -3.952703e-02, -2.034934e+00, -7.957127e-01, 2.339634e-10, 2.860342e-10, 6.415730e-10, 3.403887e-10, 4.886535e+01, -4.587272e-02
3.824000e+08, 7.300709e-02, 6.103529e-03, 2.578220e-02, 8.139953e-01, 1.084122e+00, -4.635641e-02, -2.050252e+00, -8.038399e-01, 2.324905e-10, 2.882747e-10, 6.463262e-10, 3.404555e-10, 4.882526e+01, -4.574880e-02
3.862000e+08, 7.339233e-02, 6.157317e-03, 2.591236e-02, 8.140596e-01, 1.078571e+00, -5.323929e-02, -2.065684e+00, -8.119686e-01, 2.310535e-10, 2.904942e-10, 6.509686e-10, 3.405135e-10, 4.878492e+01, -4.560590e-02
3.900000e+08, 7.377013e-02, 6.211000e-03, 2.604145e-02, 8.141191e-01, 1.073054e+00, -6.017516e-02, -2.081226e+00, -8.200987e-01, 2.296500e-10, 2.926872e-10, 6.555052e-10, 3.405628e-10, 4.874436e+01, -4.544366e-02
3.938000e+08, 7.414049e-02, 6.264557e-03, 2.616939e-02, 8.141741e-01, 1.067571e+00, -6.716339e-02, -2.096877e+00, -8.282301e-01, 2.282774e-10, 2.948487e-10, 6.599413e-10, 3.406036e-10, 4.870361e+01, -4.526171e-02
3.976000e+08, 7.450340e-02, 6.317967e-03, 2.629613e-02, 8.142244e-01, 1.062121e+00, -7.420323e-02, -2.112634e+00, -8.363623e-01, 2.269336e-10, 2.969742e-10, 6.642819e-10, 3.406361e-10, 4.866269e+01, -4.505973e-02
4.014000e+08, 7.485885e-02, 6.371208e-03, 2.642160e-02, 8.142702e-01, 1.056702e+00, -8.129382e-02, -2.128495e+00, -8.444954e-01, 2.256163e-10, 2.990594e-10, 6.685318e-10, 3.406605e-10, 4.862164e+01, -4.483742e-02
4.052000e+08, 7.520683e-02, 6.424259e-03, 2.654574e-02, 8.143114e-01, 1.051316e+00, -8.843419e-02, -2.144457e+00, -8.526291e-01, 2.243234e-10, 3.011004e-10, 6.726957e-10, 3.406770e-10, 4.858049e+01, -4.459447e-02
4.090000e+08, 7.554733e-02, 6.477098e-03, 2.666850e-02, 8.143482e-01, 1.045960e+00, -9.562329e-02, -2.160518e+00, -8.607631e-01, 2.230529e-10, 3.030936e-10, 6.767783e-10, 3.406857e-10, 4.853927e+01, -4.433063e-02
4.128000e+08, 7.588033e-02, 6.529706e-03, 2.678982e-02, 8.143806e-01, 1.040634e+00, -1.028600e-01, -2.176677e+00, -8.688973e-01, 2.218027e-10, 3.050357e-10, 6.807841e-10, 3.406868e-10, 4.849800e+01, -4.404565e-02
4.166000e+08, 7.620583e-02, 6.582061e-03, 2.690965e-02, 8.144086e-01, 1.035338e+00, -1.101431e-01, -2.192931e+00, -8.770316e-01, 2.205710e-10, 3.069237e-10, 6.847173e-10, 3.406806e-10, 4.845672e+01, -4.373929e-02
4.204000e+08, 7.652380e-02, 6.634143e-03, 2.702795e-02, 8.144324e-01, 1.030072e+00, -1.174712e-01, -2.209280e+00, -8.851657e-01, 2.193560e-10, 3.087547e-10, 6.885823e-10, 3.406672e-10, 4.841546e+01, -4.341136e-02
4.242000e+08, 7.683423e-02, 6.685931e-03, 2.714466e-02, 8.144520e-01, 1.024834e+00, -1.248431e-01, -2.225720e+00, -8.932995e-01, 2.181558e-10, 3.105262e-10, 6.923832e-10, 3.406469e-10, 4.837426e+01, -4.306165e-02
4.280000e+08, 7.713709e-02, 6.737407e-03, 2.725974e-02, 8.144674e-01, 1.019626e+00, -1.322572e-01, -2.242252e+00, -9.014329e-01, 2.169688e-10, 3.122357e-10, 6.961238e-10, 3.406197e-10, 4.833313e+01, -4.269002e-02
4.318000e+08, 7.743239e-02, 6.788550e-03, 2.737316e-02, 8.144788e-01, 1.014445e+00, -1.397122e-01, -2.258872e+00, -9.095655e-01, 2.157933e-10, 3.138813e-10, 6.998081e-10, 3.405860e-10, 4.829211e+01, -4.229631e-02
4.356000e+08, 7.772008e-02, 6.839341e-03, 2.748487e-02, 8.144862e-01, 1.009293e+00, -1.472064e-01, -2.275581e+00, -9.176974e-01, 2.146276e-10, 3.154608e-10, 7.034398e-10, 3.405460e-10, 4.825124e+01, -4.188040e-02
4.394000e+08, 7.800017e-02, 6.889761e-03, 2.759484e-02, 8.144897e-01, 1.004169e+00, -1.547384e-01, -2.292376e+00, -9.258283e-01, 2.134704e-10, 3.169725e-10, 7.070226e-10, 3.404998e-10, 4.821055e+01, -4.144219e-02
4.432000e+08, 7.827261e-02, 6.939791e-03, 2.770303e-02, 8.144894e-01, 9.990718e-01, -1.623065e-01, -2.309257e+00, -9.339581e-01, 2.123199e-10, 3.184147e-10, 7.105598e-10, 3.404476e-10, 4.817006e+01, -4.098159e-02
4.470000e+08, 7.853741e-02, 6.989414e-03, 2.780942e-02, 8.144853e-01, 9.940024e-01, -1.699090e-01, -2.326223e+00, -9.420867e-01, 2.111748e-10, 3.197860e-10, 7.140550e-10, 3.403897e-10, 4.812981e+01, -4.049854e-02
4.508000e+08, 7.879452e-02, 7.038612e-03, 2.791397e-02, 8.144776e-01, 9.889604e-01, -1.775442e-01, -2.343272e+00, -9.502139e-01, 2.100335e-10, 3.210849e-10, 7.175114e-10, 3.403262e-10, 4.808983e+01, -3.999300e-02
4.546000e+08, 7.904394e-02, 7.087366e-03, 2.801667e-02, 8.144664e-01, 9.839456e-01, -1.852105e-01, -2.360403e+00, -9.583395e-01, 2.088948e-10, 3.223103e-10, 7.209321e-10, 3.402575e-10, 4.805015e+01, -3.946494e-02
4.584000e+08, 7.928564e-02, 7.135661e-03, 2.811748e-02, 8.144517e-01, 9.789580e-01, -1.929060e-01, -2.377616e+00, -9.664636e-01, 2.077572e-10, 3.234610e-10, 7.243203e-10, 3.401836e-10, 4.801080e+01, -3.891437e-02
4.622000e+08, 7.951960e-02, 7.183479e-03, 2.821638e-02, 8.144336e-01, 9.739976e-01, -2.006290e-01, -2.394910e+00, -9.745858e-01, 2.066193e-10, 3.245361e-10, 7.276788e-10, 3.401048e-10, 4.797182e+01, -3.834131e-02
4.660000e+08, 7.974579e-02, 7.230805e-03, 2.831336e-02, 8.144123e-01, 9.690643e-01, -2.083777e-01, -2.412284e+00, -9.827062e-01, 2.054799e-10, 3.255346e-10, 7.310106e-10, 3.400213e-10, 4.793322e+01, -3.774579e-02
4.698000e+08, 7.996420e-02, 7.277622e-03, 2.840840e-02, 8.143878e-01, 9.641583e-01, -2.161502e-01, -2.429738e+00, -9.908246e-01, 2.043376e-10, 3.264557e-10, 7.343183e-10, 3.399334e-10, 4.789506e+01, -3.712787e-02
4.736000e+08, 8.017480e-02, 7.323916e-03, 2.850148e-02, 8.143602e-01, 9.592795e-01, -2.239446e-01, -2.447271e+00, -9.989409e-01, 2.031911e-10, 3.272988e-10, 7.376047e-10, 3.398412e-10, 4.785734e+01, -3.648763e-02
4.774000e+08, 8.037756e-02, 7.369671e-03, 2.859260e-02, 8.143297e-01, 9.544281e-01, -2.317593e-01, -2.464882e+00, -1.007055e+00, 2.020392e-10, 3.280632e-10, 7.408722e-10, 3.397450e-10, 4.782011e+01, -3.582517e-02
4.812000e+08, 8.057247e-02, 7.414874e-03, 2.868173e-02, 8.142963e-01, 9.496041e-01, -2.395921e-01, -2.482571e+00, -1.015167e+00, 2.008807e-10, 3.287484e-10, 7.441232e-10, 3.396450e-10, 4.778339e+01, -3.514061e-02
4.850000e+08, 8.075950e-02, 7.459511e-03, 2.876889e-02, 8.142602e-01, 9.448079e-01, -2.474414e-01, -2.500338e+00, -1.023276e+00, 1.997141e-10, 3.293539e-10, 7.473603e-10, 3.395413e-10, 4.774722e+01, -3.443409e-02
4.888000e+08, 8.093863e-02, 7.503568e-03, 2.885405e-02, 8.142213e-01, 9.400395e-01, -2.553051e-01, -2.518182e+00, -1.031383e+00, 1.985383e-10, 3.298794e-10, 7.505855e-10, 3.394343e-10, 4.771162e+01, -3.370575e-02
4.926000e+08, 8.110983e-02, 7.547034e-03, 2.893722e-02, 8.141800e-01, 9.352992e-01, -2.631813e-01, -2.536103e+00, -1.039487e+00, 1.973521e-10, 3.303243e-10, 7.538010e-10, 3.393240e-10, 4.767662e+01, -3.295578e-02
4.964000e+08, 8.127308e-02, 7.589895e-03, 2.901840e-02, 8.141362e-01, 9.305872e-01, -2.710681e-01, -2.554101e+00, -1.047589e+00, 1.961542e-10, 3.306886e-10, 7.570089e-10, 3.392108e-10, 4.764226e+01, -3.218436e-02
5.002000e+08, 8.142835e-02, 7.632140e-03, 2.909758e-02, 8.140901e-01, 9.259038e-01, -2.789637e-01, -2.572175e+00, -1.055688e+00, 1.949433e-10, 3.309719e-10, 7.602112e-10, 3.390949e-10, 4.760855e+01, -3.139172e-02
5.040000e+08, 8.157563e-02, 7.673758e-03, 2.917478e-02, 8.140417e-01, 9.212493e-01, -2.868660e-01, -2.590326e+00, -1.063784e+00, 1.937182e-10, 3.311740e-10, 7.634097e-10, 3.389764e-10, 4.757553e+01, -3.057807e-02
5.078000e+08, 8.171488e-02, 7.714739e-03, 2.925000e-02, 8.139913e-01, 9.166241e-01, -2.947732e-01, -2.608553e+00, -1.071878e+00, 1.924776e-10, 3.312949e-10, 7.666061e-10, 3.388556e-10, 4.754323e+01, -2.974367e-02
5.116000e+08, 8.184608e-02, 7.755073e-03, 2.932325e-02, 8.139388e-01, 9.120284e-01, -3.026832e-01, -2.626857e+00, -1.079968e+00, 1.912202e-10, 3.313344e-10, 7.698022e-10, 3.387326e-10, 4.751167e+01, -2.888878e-02
5.154000e+08, 8.196922e-02, 7.794749e-03, 2.939454e-02, 8.138845e-01, 9.074629e-01, -3.105942e-01, -2.645237e+00, -1.088056e+00, 1.899448e-10, 3.312926e-10, 7.729996e-10, 3.386077e-10, 4.748088e+01, -2.801369e-02
5.192000e+08, 8.208426e-02, 7.833761e-03, 2.946388e-02, 8.138283e-01, 9.029277e-01, -3.185041e-01, -2.663693e+00, -1.096141e+00, 1.886501e-10, 3.311693e-10, 7.761996e-10, 3.384812e-10, 4.745088e+01, -2.711868e-02
5.230000e+08, 8.219119e-02, 7.872099e-03, 2.953129e-02, 8.137705e-01, 8.984235e-01, -3.264112e-01, -2.682225e+00, -1.104222e+00, 1.873346e-10, 3.309646e-10, 7.794038e-10, 3.383531e-10, 4.742170e+01, -2.620409e-02
5.268000e+08, 8.228997e-02, 7.909756e-03, 2.959679e-02, 8.137111e-01, 8.939507e-01, -3.343133e-01, -2.700834e+00, -1.112301e+00, 1.859972e-10, 3.306786e-10, 7.826134e-10, 3.382237e-10, 4.739337e+01, -2.527024e-02
5.306000e+08, 8.238058e-02, 7.946724e-03, 2.966039e-02, 8.136503e-01, 8.895098e-01, -3.422086e-01, -2.719520e+00, -1.120376e+00, 1.846363e-10, 3.303113e-10, 7.858296e-10, 3.380932e-10, 4.736592e+01, -2.431747e-02
5.344000e+08, 8.246301e-02, 7.982998e-03, 2.972212e-02, 8.135881e-01, 8.851014e-01, -3.500952e-01, -2.738283e+00, -1.128449e+00, 1.832505e-10, 3.298629e-10, 7.890535e-10, 3.379618e-10, 4.733935e+01, -2.334616e-02
5.382000e+08, 8.253722e-02, 8.018572e-03, 2.978201e-02, 8.135247e-01, 8.807261e-01, -3.579710e-01, -2.757122e+00, -1.136518e+00, 1.818386e-10, 3.293335e-10, 7.922861e-10, 3.378297e-10, 4.731371e+01, -2.235668e-02
5.420000e+08, 8.260320e-02, 8.053441e-03, 2.984008e-02, 8.134601e-01, 8.763845e-01, -3.658342e-01, -2.776039e+00, -1.144584e+00, 1.803989e-10, 3.287233e-10, 7.955283e-10, 3.376971e-10, 4.728902e+01, -2.134942e-02
5.458000e+08, 8.266092e-02, 8.087600e-03, 2.989636e-02, 8.133945e-01, 8.720772e-01, -3.736829e-01, -2.795033e+00, -1.152647e+00, 1.789300e-10, 3.280324e-10, 7.987810e-10, 3.375641e-10, 4.726529e+01, -2.032480e-02
5.496000e+08, 8.271036e-02, 8.121045e-03, 2.995088e-02, 8.133280e-01, 8.678051e-01, -3.815150e-01, -2.814105e+00, -1.160707e+00, 1.774303e-10, 3.272611e-10, 8.020449e-10, 3.374310e-10, 4.724255e+01, -1.928323e-02
