Frequency [Hz], |S02| [-], |S12| [-], |S22| [-], |S32| [-], Arg(S02) [-], Arg(S12) [-], Arg(S22) [-], Arg(S32) [-], Delay 2>0 [s], Delay 2>1 [s], Delay 2>2 [s], Delay 2>3 [s], |Z2| [Ohm] , Arg(Z2) [-]
2.000000e+08, 5.269423e-02, 3.941389e-03, 2.598568e-02, 7.923644e-01, 1.253553e+00, 4.153552e-01, -1.957787e+00, -5.354005e-01, 4.483500e-10, 6.410363e-10, 2.628313e-10, 4.198151e-10, 4.902937e+01, -4.812337e-02
2.038000e+08, 5.354865e-02, 4.036789e-03, 2.615375e-02, 7.926657e-01, 1.242849e+00, 4.000498e-01, -1.964062e+00, -5.454240e-01, 4.410807e-10, 6.398228e-10, 2.740859e-10, 4.207192e-10, 4.900829e+01, -4.830993e-02
2.076000e+08, 5.438812e-02, 4.131972e-03, 2.633501e-02, 7.929628e-01, 1.232317e+00, 3.847733e-01, -1.970606e+00, -5.554692e-01, 4.339098e-10, 6.386732e-10, 2.855467e-10, 4.215901e-10, 4.898592e+01, -4.851178e-02
2.114000e+08, 5.521296e-02, 4.226912e-03, 2.652873e-02, 7.932553e-01, 1.221957e+00, 3.695243e-01, -1.977424e+00, -5.655351e-01, 4.268612e-10, 6.375837e-10, 2.971579e-10, 4.224287e-10, 4.896226e+01, -4.872687e-02
2.152000e+08, 5.602344e-02, 4.321587e-03, 2.673421e-02, 7.935431e-01, 1.211765e+00, 3.543013e-01, -1.984519e+00, -5.756210e-01, 4.199535e-10, 6.365503e-10, 3.088677e-10, 4.232359e-10, 4.893729e+01, -4.895320e-02
2.190000e+08, 5.681984e-02, 4.415971e-03, 2.695077e-02, 7.938257e-01, 1.201739e+00, 3.391029e-01, -1.991893e+00, -5.857263e-01, 4.132006e-10, 6.355690e-10, 3.206287e-10, 4.240123e-10, 4.891101e+01, -4.918881e-02
2.228000e+08, 5.760242e-02, 4.510040e-03, 2.717776e-02, 7.941029e-01, 1.191873e+00, 3.239280e-01, -1.999549e+00, -5.958500e-01, 4.066122e-10, 6.346356e-10, 3.323976e-10, 4.247587e-10, 4.888342e+01, -4.943178e-02
2.266000e+08, 5.837143e-02, 4.603770e-03, 2.741456e-02, 7.943743e-01, 1.182165e+00, 3.087754e-01, -2.007485e+00, -6.059916e-01, 4.001947e-10, 6.337460e-10, 3.441349e-10, 4.254755e-10, 4.885451e+01, -4.968025e-02
2.304000e+08, 5.912708e-02, 4.697135e-03, 2.766055e-02, 7.946397e-01, 1.172610e+00, 2.936440e-01, -2.015702e+00, -6.161503e-01, 3.939513e-10, 6.328963e-10, 3.558055e-10, 4.261633e-10, 4.882430e+01, -4.993236e-02
2.342000e+08, 5.986959e-02, 4.790111e-03, 2.791515e-02, 7.948989e-01, 1.163204e+00, 2.785329e-01, -2.024197e+00, -6.263254e-01, 3.878830e-10, 6.320827e-10, 3.673779e-10, 4.268226e-10, 4.879277e+01, -5.018632e-02
2.380000e+08, 6.059913e-02, 4.882672e-03, 2.817779e-02, 7.951516e-01, 1.153942e+00, 2.634412e-01, -2.032969e+00, -6.365163e-01, 3.819884e-10, 6.313016e-10, 3.788243e-10, 4.274538e-10, 4.875994e+01, -5.044036e-02
2.418000e+08, 6.131589e-02, 4.974794e-03, 2.844793e-02, 7.953976e-01, 1.144822e+00, 2.483682e-01, -2.042013e+00, -6.467222e-01, 3.762648e-10, 6.305496e-10, 3.901205e-10, 4.280573e-10, 4.872582e+01, -5.069275e-02
2.456000e+08, 6.202001e-02, 5.066451e-03, 2.872505e-02, 7.956367e-01, 1.135838e+00, 2.333131e-01, -2.051328e+00, -6.569426e-01, 3.707079e-10, 6.298235e-10, 4.012453e-10, 4.286336e-10, 4.869042e+01, -5.094179e-02
2.494000e+08, 6.271161e-02, 5.157619e-03, 2.900862e-02, 7.958686e-01, 1.126987e+00, 2.182754e-01, -2.060908e+00, -6.671767e-01, 3.653123e-10, 6.291203e-10, 4.121808e-10, 4.291830e-10, 4.865376e+01, -5.118582e-02
2.532000e+08, 6.339081e-02, 5.248271e-03, 2.929815e-02, 7.960932e-01, 1.118265e+00, 2.032545e-01, -2.070749e+00, -6.774239e-01, 3.600719e-10, 6.284373e-10, 4.229119e-10, 4.297059e-10, 4.861585e+01, -5.142321e-02
2.570000e+08, 6.405771e-02, 5.338384e-03, 2.959316e-02, 7.963103e-01, 1.109668e+00, 1.882498e-01, -2.080847e+00, -6.876836e-01, 3.549799e-10, 6.277717e-10, 4.334259e-10, 4.302025e-10, 4.857671e+01, -5.165237e-02
2.608000e+08, 6.471239e-02, 5.427931e-03, 2.989319e-02, 7.965198e-01, 1.101192e+00, 1.732611e-01, -2.091195e+00, -6.979551e-01, 3.500289e-10, 6.271212e-10, 4.437127e-10, 4.306733e-10, 4.853637e+01, -5.187172e-02
2.646000e+08, 6.535490e-02, 5.516888e-03, 3.019777e-02, 7.967216e-01, 1.092835e+00, 1.582879e-01, -2.101790e+00, -7.082379e-01, 3.452114e-10, 6.264837e-10, 4.537642e-10, 4.311186e-10, 4.849485e+01, -5.207975e-02
2.684000e+08, 6.598530e-02, 5.605230e-03, 3.050648e-02, 7.969154e-01, 1.084593e+00, 1.433299e-01, -2.112624e+00, -7.185314e-01, 3.405194e-10, 6.258570e-10, 4.635744e-10, 4.315386e-10, 4.845218e+01, -5.227497e-02
2.722000e+08, 6.660361e-02, 5.692932e-03, 3.081889e-02, 7.971012e-01, 1.076462e+00, 1.283869e-01, -2.123692e+00, -7.288348e-01, 3.359451e-10, 6.252393e-10, 4.731390e-10, 4.319338e-10, 4.840839e+01, -5.245591e-02
2.760000e+08, 6.720987e-02, 5.779969e-03, 3.113458e-02, 7.972789e-01, 1.068441e+00, 1.134586e-01, -2.134989e+00, -7.391477e-01, 3.314803e-10, 6.246288e-10, 4.824553e-10, 4.323044e-10, 4.836351e+01, -5.262117e-02
2.798000e+08, 6.780408e-02, 5.866315e-03, 3.145315e-02, 7.974484e-01, 1.060527e+00, 9.854488e-02, -2.146508e+00, -7.494695e-01, 3.271173e-10, 6.240240e-10, 4.915220e-10, 4.326507e-10, 4.831757e+01, -5.276935e-02
2.836000e+08, 6.838623e-02, 5.951948e-03, 3.177421e-02, 7.976096e-01, 1.052717e+00, 8.364562e-02, -2.158244e+00, -7.597995e-01, 3.228479e-10, 6.234235e-10, 5.003391e-10, 4.329732e-10, 4.827062e+01, -5.289911e-02
2.874000e+08, 6.895632e-02, 6.036842e-03, 3.209738e-02, 7.977626e-01, 1.045008e+00, 6.876069e-02, -2.170190e+00, -7.701372e-01, 3.186645e-10, 6.228259e-10, 5.089076e-10, 4.332721e-10, 4.822268e+01, -5.300915e-02
2.912000e+08, 6.951431e-02, 6.120972e-03, 3.242228e-02, 7.979071e-01, 1.037400e+00, 5.389004e-02, -2.182340e+00, -7.804821e-01, 3.145594e-10, 6.222300e-10, 5.172296e-10, 4.335479e-10, 4.817381e+01, -5.309821e-02
2.950000e+08, 7.006019e-02, 6.204314e-03, 3.274857e-02, 7.980433e-01, 1.029889e+00, 3.903361e-02, -2.194690e+00, -7.908335e-01, 3.105251e-10, 6.216347e-10, 5.253079e-10, 4.338008e-10, 4.812405e+01, -5.316506e-02
2.988000e+08, 7.059389e-02, 6.286845e-03, 3.307589e-02, 7.981711e-01, 1.022475e+00, 2.419140e-02, -2.207232e+00, -8.011910e-01, 3.065543e-10, 6.210390e-10, 5.331461e-10, 4.340312e-10, 4.807343e+01, -5.320852e-02
3.026000e+08, 7.111538e-02, 6.368540e-03, 3.340389e-02, 7.982905e-01, 1.015156e+00, 9.363403e-03, -2.219962e+00, -8.115539e-01, 3.026398e-10, 6.204420e-10, 5.407484e-10, 4.342396e-10, 4.802201e+01, -5.322745e-02
3.064000e+08, 7.162459e-02, 6.449374e-03, 3.373226e-02, 7.984015e-01, 1.007930e+00, -5.450334e-03, -2.232873e+00, -8.219219e-01, 2.987747e-10, 6.198428e-10, 5.481195e-10, 4.344263e-10, 4.796983e+01, -5.322076e-02
3.102000e+08, 7.212146e-02, 6.529325e-03, 3.406065e-02, 7.985042e-01, 1.000796e+00, -2.024976e-02, -2.245960e+00, -8.322943e-01, 2.949523e-10, 6.192406e-10, 5.552645e-10, 4.345917e-10, 4.791694e+01, -5.318738e-02
3.140000e+08, 7.260591e-02, 6.608369e-03, 3.438878e-02, 7.985985e-01, 9.937541e-01, -3.503482e-02, -2.259217e+00, -8.426707e-01, 2.911660e-10, 6.186346e-10, 5.621891e-10, 4.347362e-10, 4.786341e+01, -5.312633e-02
3.178000e+08, 7.307787e-02, 6.686481e-03, 3.471631e-02, 7.986846e-01, 9.868022e-01, -4.980540e-02, -2.272640e+00, -8.530505e-01, 2.874094e-10, 6.180243e-10, 5.688989e-10, 4.348603e-10, 4.780927e+01, -5.303664e-02
3.216000e+08, 7.353726e-02, 6.763638e-03, 3.504297e-02, 7.987625e-01, 9.799400e-01, -6.456141e-02, -2.286223e+00, -8.634332e-01, 2.836763e-10, 6.174088e-10, 5.754001e-10, 4.349644e-10, 4.775458e+01, -5.291740e-02
3.254000e+08, 7.398397e-02, 6.839817e-03, 3.536845e-02, 7.988322e-01, 9.731669e-01, -7.930273e-02, -2.299961e+00, -8.738185e-01, 2.799607e-10, 6.167876e-10, 5.816989e-10, 4.350490e-10, 4.769940e+01, -5.276774e-02
3.292000e+08, 7.441792e-02, 6.914995e-03, 3.569249e-02, 7.988940e-01, 9.664825e-01, -9.402921e-02, -2.313850e+00, -8.842058e-01, 2.762567e-10, 6.161598e-10, 5.878015e-10, 4.351146e-10, 4.764379e+01, -5.258686e-02
3.330000e+08, 7.483900e-02, 6.989147e-03, 3.601480e-02, 7.989478e-01, 9.598866e-01, -1.087407e-01, -2.327884e+00, -8.945946e-01, 2.725586e-10, 6.155250e-10, 5.937145e-10, 4.351615e-10, 4.758780e+01, -5.237397e-02
3.368000e+08, 7.524711e-02, 7.062251e-03, 3.633512e-02, 7.989938e-01, 9.533789e-01, -1.234371e-01, -2.342060e+00, -9.049846e-01, 2.688607e-10, 6.148823e-10, 5.994443e-10, 4.351904e-10, 4.753149e+01, -5.212838e-02
3.406000e+08, 7.564214e-02, 7.134282e-03, 3.665318e-02, 7.990322e-01, 9.469596e-01, -1.381180e-01, -2.356372e+00, -9.153752e-01, 2.651577e-10, 6.142311e-10, 6.049975e-10, 4.352016e-10, 4.747492e+01, -5.184941e-02
3.444000e+08, 7.602396e-02, 7.205219e-03, 3.696874e-02, 7.990629e-01, 9.406287e-01, -1.527835e-01, -2.370817e+00, -9.257661e-01, 2.614442e-10, 6.135705e-10, 6.103806e-10, 4.351958e-10, 4.741816e+01, -5.153645e-02
3.482000e+08, 7.639247e-02, 7.275036e-03, 3.728156e-02, 7.990863e-01, 9.343864e-01, -1.674332e-01, -2.385391e+00, -9.361569e-01, 2.577150e-10, 6.128997e-10, 6.156000e-10, 4.351735e-10, 4.736125e+01, -5.118893e-02
3.520000e+08, 7.674753e-02, 7.343712e-03, 3.759139e-02, 7.991024e-01, 9.282332e-01, -1.820668e-01, -2.400089e+00, -9.465472e-01, 2.539648e-10, 6.122176e-10, 6.206621e-10, 4.351352e-10, 4.730428e+01, -5.080636e-02
3.558000e+08, 7.708901e-02, 7.411222e-03, 3.789800e-02, 7.991114e-01, 9.221695e-01, -1.966842e-01, -2.414908e+00, -9.569365e-01, 2.501886e-10, 6.115233e-10, 6.255734e-10, 4.350815e-10, 4.724729e+01, -5.038826e-02
3.596000e+08, 7.741679e-02, 7.477542e-03, 3.820117e-02, 7.991135e-01, 9.161959e-01, -2.112850e-01, -2.429844e+00, -9.673245e-01, 2.463815e-10, 6.108155e-10, 6.303400e-10, 4.350129e-10, 4.719035e+01, -4.993424e-02
3.634000e+08, 7.773073e-02, 7.542649e-03, 3.850068e-02, 7.991089e-01, 9.103133e-01, -2.258689e-01, -2.444894e+00, -9.777110e-01, 2.425384e-10, 6.100929e-10, 6.349683e-10, 4.349300e-10, 4.713353e+01, -4.944393e-02
3.672000e+08, 7.803068e-02, 7.606519e-03, 3.879632e-02, 7.990977e-01, 9.045224e-01, -2.404355e-01, -2.460055e+00, -9.880954e-01, 2.386545e-10, 6.093539e-10, 6.394642e-10, 4.348333e-10, 4.707688e+01, -4.891706e-02
3.710000e+08, 7.831650e-02, 7.669127e-03, 3.908788e-02, 7.990802e-01, 8.988243e-01, -2.549845e-01, -2.475323e+00, -9.984775e-01, 2.347249e-10, 6.085969e-10, 6.438337e-10, 4.347236e-10, 4.702047e+01, -4.835336e-02
3.748000e+08, 7.858804e-02, 7.730450e-03, 3.937517e-02, 7.990565e-01, 8.932200e-01, -2.695154e-01, -2.490695e+00, -1.008857e+00, 2.307446e-10, 6.078199e-10, 6.480827e-10, 4.346013e-10, 4.696437e+01, -4.775264e-02
3.786000e+08, 7.884515e-02, 7.790462e-03, 3.965799e-02, 7.990269e-01, 8.877107e-01, -2.840278e-01, -2.506169e+00, -1.019234e+00, 2.267090e-10, 6.070206e-10, 6.522168e-10, 4.344671e-10, 4.690863e+01, -4.711478e-02
3.824000e+08, 7.908767e-02, 7.849138e-03, 3.993615e-02, 7.989916e-01, 8.822978e-01, -2.985211e-01, -2.521741e+00, -1.029607e+00, 2.226130e-10, 6.061967e-10, 6.562418e-10, 4.343216e-10, 4.685332e+01, -4.643967e-02
3.862000e+08, 7.931545e-02, 7.906454e-03, 4.020949e-02, 7.989508e-01, 8.769826e-01, -3.129947e-01, -2.537410e+00, -1.039977e+00, 2.184519e-10, 6.053453e-10, 6.601631e-10, 4.341654e-10, 4.679851e+01, -4.572729e-02
3.900000e+08, 7.952831e-02, 7.962383e-03, 4.047782e-02, 7.989047e-01, 8.717669e-01, -3.274480e-01, -2.553172e+00, -1.050343e+00, 2.142208e-10, 6.044634e-10, 6.639860e-10, 4.339992e-10, 4.674425e+01, -4.497766e-02
3.938000e+08, 7.972609e-02, 8.016900e-03, 4.074097e-02, 7.988536e-01, 8.666521e-01, -3.418802e-01, -2.569025e+00, -1.060705e+00, 2.099147e-10, 6.035474e-10, 6.677157e-10, 4.338236e-10, 4.669061e+01, -4.419086e-02
3.976000e+08, 7.990861e-02, 8.069978e-03, 4.099879e-02, 7.987977e-01, 8.616402e-01, -3.562906e-01, -2.584968e+00, -1.071063e+00, 2.055287e-10, 6.025936e-10, 6.713574e-10, 4.336391e-10, 4.663765e+01, -4.336700e-02
4.014000e+08, 8.007571e-02, 8.121591e-03, 4.125112e-02, 7.987373e-01, 8.567329e-01, -3.706782e-01, -2.600997e+00, -1.081417e+00, 2.010577e-10, 6.015976e-10, 6.749160e-10, 4.334465e-10, 4.658543e+01, -4.250627e-02
4.052000e+08, 8.022719e-02, 8.171712e-03, 4.149781e-02, 7.986726e-01, 8.519325e-01, -3.850420e-01, -2.617111e+00, -1.091766e+00, 1.964968e-10, 6.005546e-10, 6.783964e-10, 4.332464e-10, 4.653401e+01, -4.160889e-02
4.090000e+08, 8.036288e-02, 8.220314e-03, 4.173872e-02, 7.986038e-01, 8.472409e-01, -3.993809e-01, -2.633309e+00, -1.102110e+00, 1.918407e-10, 5.994594e-10, 6.818032e-10, 4.330394e-10, 4.648346e+01, -4.067514e-02
4.128000e+08, 8.048259e-02, 8.267368e-03, 4.197370e-02, 7.985312e-01, 8.426605e-01, -4.136937e-01, -2.649588e+00, -1.112449e+00, 1.870843e-10, 5.983063e-10, 6.851410e-10, 4.328262e-10, 4.643383e+01, -3.970536e-02
4.166000e+08, 8.058612e-02, 8.312846e-03, 4.220263e-02, 7.984551e-01, 8.381936e-01, -4.279789e-01, -2.665946e+00, -1.122784e+00, 1.822223e-10, 5.970889e-10, 6.884145e-10, 4.326074e-10, 4.638517e+01, -3.869992e-02
4.204000e+08, 8.067328e-02, 8.356721e-03, 4.242539e-02, 7.983757e-01, 8.338429e-01, -4.422350e-01, -2.682383e+00, -1.133113e+00, 1.772493e-10, 5.958003e-10, 6.916278e-10, 4.323836e-10, 4.633756e+01, -3.765925e-02
4.242000e+08, 8.074387e-02, 8.398964e-03, 4.264184e-02, 7.982933e-01, 8.296109e-01, -4.564604e-01, -2.698896e+00, -1.143436e+00, 1.721597e-10, 5.944329e-10, 6.947853e-10, 4.321554e-10, 4.629103e+01, -3.658384e-02
4.280000e+08, 8.079769e-02, 8.439546e-03, 4.285189e-02, 7.982081e-01, 8.255003e-01, -4.706532e-01, -2.715485e+00, -1.153754e+00, 1.669482e-10, 5.929788e-10, 6.978911e-10, 4.319236e-10, 4.624566e+01, -3.547419e-02
4.318000e+08, 8.083453e-02, 8.478437e-03, 4.305541e-02, 7.981203e-01, 8.215143e-01, -4.848112e-01, -2.732148e+00, -1.164067e+00, 1.616089e-10, 5.914290e-10, 7.009492e-10, 4.316887e-10, 4.620149e+01, -3.433090e-02
4.356000e+08, 8.085418e-02, 8.515610e-03, 4.325231e-02, 7.980303e-01, 8.176557e-01, -4.989322e-01, -2.748884e+00, -1.174374e+00, 1.561362e-10, 5.897742e-10, 7.039637e-10, 4.314513e-10, 4.615858e+01, -3.315456e-02
4.394000e+08, 8.085642e-02, 8.551036e-03, 4.344250e-02, 7.979383e-01, 8.139278e-01, -5.130137e-01, -2.765692e+00, -1.184676e+00, 1.505242e-10, 5.880044e-10, 7.069384e-10, 4.312121e-10, 4.611698e+01, -3.194585e-02
4.432000e+08, 8.084105e-02, 8.584685e-03, 4.362587e-02, 7.978445e-01, 8.103338e-01, -5.270530e-01, -2.782571e+00, -1.194971e+00, 1.447669e-10, 5.861087e-10, 7.098769e-10, 4.309716e-10, 4.607673e+01, -3.070546e-02
4.470000e+08, 8.080785e-02, 8.616531e-03, 4.380234e-02, 7.977492e-01, 8.068774e-01, -5.410470e-01, -2.799520e+00, -1.205261e+00, 1.388583e-10, 5.840758e-10, 7.127830e-10, 4.307304e-10, 4.603790e+01, -2.943415e-02
4.508000e+08, 8.075659e-02, 8.646545e-03, 4.397184e-02, 7.976527e-01, 8.035620e-01, -5.549924e-01, -2.816538e+00, -1.215545e+00, 1.327923e-10, 5.818938e-10, 7.156603e-10, 4.304892e-10, 4.600053e+01, -2.813271e-02
4.546000e+08, 8.068706e-02, 8.674701e-03, 4.413430e-02, 7.975551e-01, 8.003914e-01, -5.688858e-01, -2.833625e+00, -1.225824e+00, 1.265625e-10, 5.795501e-10, 7.185123e-10, 4.302484e-10, 4.596466e+01, -2.680196e-02
4.584000e+08, 8.059902e-02, 8.700973e-03, 4.428963e-02, 7.974568e-01, 7.973696e-01, -5.827232e-01, -2.850781e+00, -1.236096e+00, 1.201629e-10, 5.770316e-10, 7.213424e-10, 4.300087e-10, 4.593034e+01, -2.544277e-02
4.622000e+08, 8.049227e-02, 8.725337e-03, 4.443779e-02, 7.973579e-01, 7.945006e-01, -5.965004e-01, -2.868004e+00, -1.246363e+00, 1.135869e-10, 5.743249e-10, 7.241540e-10, 4.297706e-10, 4.589761e+01, -2.405605e-02
4.660000e+08, 8.036657e-02, 8.747771e-03, 4.457870e-02, 7.972588e-01, 7.917885e-01, -6.102131e-01, -2.885294e+00, -1.256625e+00, 1.068283e-10, 5.714161e-10, 7.269503e-10, 4.295346e-10, 4.586652e+01, -2.264274e-02
4.698000e+08, 8.022171e-02, 8.768252e-03, 4.471233e-02, 7.971595e-01, 7.892379e-01, -6.238563e-01, -2.902650e+00, -1.266880e+00, 9.988064e-11, 5.682908e-10, 7.297346e-10, 4.293012e-10, 4.583711e+01, -2.120382e-02
4.736000e+08, 8.005747e-02, 8.786762e-03, 4.483863e-02, 7.970605e-01, 7.868531e-01, -6.374248e-01, -2.920074e+00, -1.277130e+00, 9.273760e-11, 5.649349e-10, 7.325101e-10, 4.290710e-10, 4.580942e+01, -1.974029e-02
4.774000e+08, 7.987362e-02, 8.803284e-03, 4.495755e-02, 7.969618e-01, 7.846389e-01, -6.509133e-01, -2.937563e+00, -1.287375e+00, 8.539283e-11, 5.613337e-10, 7.352799e-10, 4.288443e-10, 4.578348e+01, -1.825320e-02
4.812000e+08, 7.966997e-02, 8.817806e-03, 4.506907e-02, 7.968637e-01, 7.826001e-01, -6.643157e-01, -2.955119e+00, -1.297614e+00, 7.784010e-11, 5.574730e-10, 7.380469e-10, 4.286218e-10, 4.575933e+01, -1.674363e-02
4.850000e+08, 7.944629e-02, 8.830317e-03, 4.517315e-02, 7.967663e-01, 7.807416e-01, -6.776260e-01, -2.972740e+00, -1.307848e+00, 7.007332e-11, 5.533387e-10, 7.408143e-10, 4.284038e-10, 4.573701e+01, -1.521267e-02
4.888000e+08, 7.920240e-02, 8.840810e-03, 4.526976e-02, 7.966700e-01, 7.790685e-01, -6.908376e-01, -2.990428e+00, -1.318076e+00, 6.208656e-11, 5.489170e-10, 7.435850e-10, 4.281907e-10, 4.571655e+01, -1.366146e-02
4.926000e+08, 7.893809e-02, 8.849282e-03, 4.535890e-02, 7.965749e-01, 7.775861e-01, -7.039436e-01, -3.008182e+00, -1.328300e+00, 5.387415e-11, 5.441949e-10, 7.463620e-10, 4.279830e-10, 4.569797e+01, -1.209114e-02
4.964000e+08, 7.865320e-02, 8.855734e-03, 4.544055e-02, 7.964812e-01, 7.762998e-01, -7.169369e-01, -3.026002e+00, -1.338518e+00, 4.543073e-11, 5.391600e-10, 7.491479e-10, 4.277810e-10, 4.568132e+01, -1.050291e-02
5.002000e+08, 7.834755e-02, 8.860172e-03, 4.551470e-02, 7.963890e-01, 7.752151e-01, -7.298099e-01, -3.043889e+00, -1.348732e+00, 3.675132e-11, 5.338009e-10, 7.519458e-10, 4.275851e-10, 4.566661e+01, -8.897967e-03
5.040000e+08, 7.802098e-02, 8.862609e-03, 4.558135e-02, 7.962985e-01, 7.743376e-01, -7.425550e-01, -3.061842e+00, -1.358941e+00, 2.783145e-11, 5.281075e-10, 7.547584e-10, 4.273957e-10, 4.565388e+01, -7.277531e-03
5.078000e+08, 7.767336e-02, 8.863058e-03, 4.564050e-02, 7.962100e-01, 7.736731e-01, -7.551641e-01, -3.079863e+00, -1.369146e+00, 1.866719e-11, 5.220708e-10, 7.575885e-10, 4.272130e-10, 4.564315e+01, -5.642848e-03
5.116000e+08, 7.730456e-02, 8.861543e-03, 4.569216e-02, 7.961235e-01, 7.732274e-01, -7.676292e-01, -3.097951e+00, -1.379346e+00, 9.255334e-12, 5.156836e-10, 7.604388e-10, 4.270374e-10, 4.563443e+01, -3.995180e-03
5.154000e+08, 7.691449e-02, 8.858092e-03, 4.573636e-02, 7.960392e-01, 7.730064e-01, -7.799417e-01, -3.116108e+00, -1.389542e+00, -4.065178e-13, 5.089404e-10, 7.633121e-10, 4.268691e-10, 4.562776e+01, -2.335805e-03
5.192000e+08, 7.650307e-02, 8.852736e-03, 4.577310e-02, 7.959572e-01, 7.730161e-01, -7.920932e-01, -3.134333e+00, -1.399734e+00, -1.031982e-11, 5.018375e-10, 7.662109e-10, 4.267084e-10, 4.562315e+01, -6.660157e-04
5.230000e+08, 7.607025e-02, 8.845517e-03, 4.580241e-02, 7.958777e-01, 7.732625e-01, -8.040751e-01, 3.130559e+00, -1.409922e+00, -2.048492e-11, 4.943732e-10, 7.691380e-10, 4.265555e-10, 4.562061e+01, 1.012883e-03
5.268000e+08, 7.561600e-02, 8.836480e-03, 4.582433e-02, 7.958009e-01, 7.737516e-01, -8.158788e-01, 3.112195e+00, -1.420106e+00, -3.090091e-11, 4.865482e-10, 7.720959e-10, 4.264106e-10, 4.562017e+01, 2.699574e-03
5.306000e+08, 7.514033e-02, 8.825678e-03, 4.583888e-02, 7.957267e-01, 7.744894e-01, -8.274957e-01, 3.093760e+00, -1.430288e+00, -4.156548e-11, 4.783652e-10, 7.750873e-10, 4.262739e-10, 4.562184e+01, 4.392732e-03
5.344000e+08, 7.464330e-02, 8.813168e-03, 4.584612e-02, 7.956553e-01, 7.754818e-01, -8.389172e-01, 3.075254e+00, -1.440465e+00, -5.247470e-11, 4.698295e-10, 7.781149e-10, 4.261456e-10, 4.562562e+01, 6.091024e-03
5.382000e+08, 7.412497e-02, 8.799016e-03, 4.584608e-02, 7.955868e-01, 7.767347e-01, -8.501349e-01, 3.056675e+00, -1.450640e+00, -6.362285e-11, 4.609484e-10, 7.811810e-10, 4.260257e-10, 4.563153e+01, 7.793109e-03
5.420000e+08, 7.358547e-02, 8.783290e-03, 4.583882e-02, 7.955214e-01, 7.782538e-01, -8.611405e-01, 3.038024e+00, -1.460812e+00, -7.500228e-11, 4.517321e-10, 7.842883e-10, 4.259144e-10, 4.563958e+01, 9.497645e-03
5.458000e+08, 7.302496e-02, 8.766069e-03, 4.582439e-02, 7.954590e-01, 7.800446e-01, -8.719261e-01, 3.019298e+00, -1.470981e+00, -8.660313e-11, 4.421925e-10, 7.874394e-10, 4.258117e-10, 4.564978e+01, 1.120328e-02
5.496000e+08, 7.244365e-02, 8.747433e-03, 4.580286e-02, 7.953997e-01, 7.821123e-01, -8.824840e-01, 3.000497e+00, -1.481148e+00, -9.841326e-11, 4.323443e-10, 7.906366e-10, 4.257178e-10, 4.566212e+01, 1.290868e-02
